VG, VDS, ID, IG
-10.0, 0.1, 2.7412e-09, -7.27e-11
-9.8, 0.1, 2.3483e-09, -6.246e-11
-9.6, 0.1, 2.3067e-09, -5.81e-11
-9.4, 0.1, 2.1986e-09, -5.558e-11
-9.2, 0.1, 2.1757e-09, -5.358e-11
-9.0, 0.1, 2.1102e-09, -5.145e-11
-8.8, 0.1, 2.2227e-09, -4.959e-11
-8.6, 0.1, 2.1819e-09, -4.714e-11
-8.4, 0.1, 2.1499e-09, -4.566e-11
-8.2, 0.1, 2.1142e-09, -4.38e-11
-8.0, 0.1, 2.0811e-09, -4.197e-11
-7.8, 0.1, 2.0615e-09, -4.071e-11
-7.6, 0.1, 2.0959e-09, -3.874e-11
-7.4, 0.1, 2.0508e-09, -3.658e-11
-7.2, 0.1, 1.9885e-09, -3.461e-11
-7.0, 0.1, 2.0559e-09, -3.262e-11
-6.8, 0.1, 2.0405e-09, -3.089e-11
-6.6, 0.1, 1.9928e-09, -2.934e-11
-6.4, 0.1, 1.9624e-09, -2.772e-11
-6.2, 0.1, 2.0215e-09, -2.616e-11
-6.0, 0.1, 2.0699e-09, -2.466e-11
-5.8, 0.1, 1.9768e-09, -2.318e-11
-5.6, 0.1, 1.9813e-09, -2.187e-11
-5.4, 0.1, 1.9243e-09, -2.067e-11
-5.2, 0.1, 1.9819e-09, -1.946e-11
-5.0, 0.1, 1.985e-09, -1.804e-11
-4.8, 0.1, 1.9642e-09, -1.673e-11
-4.6, 0.1, 2.0642e-09, -1.54e-11
-4.4, 0.1, 2.0378e-09, -1.437e-11
-4.2, 0.1, 1.9938e-09, -1.305e-11
-4.0, 0.1, 1.9712e-09, -1.202e-11
-3.8, 0.1, 2.0885e-09, -1.107e-11
-3.6, 0.1, 2.0983e-09, -9.86e-12
-3.4, 0.1, 2.0803e-09, -8.71e-12
-3.2, 0.1, 2.0861e-09, -7.8e-12
-3.0, 0.1, 2.0688e-09, -6.67e-12
-2.8, 0.1, 2.0737e-09, -5.67e-12
-2.6, 0.1, 2.0444e-09, -4.63e-12
-2.4, 0.1, 1.9339e-09, -3.56e-12
-2.2, 0.1, 1.8952e-09, -2.56e-12
-2.0, 0.1, 1.967e-09, -1.52e-12
-1.8, 0.1, 1.8646e-09, -7.2e-13
-1.6, 0.1, 1.9283e-09, 1.8e-13
-1.4, 0.1, 1.887e-09, 1.11e-12
-1.2, 0.1, 1.881e-09, 2.03e-12
-1.0, 0.1, 1.8665e-09, 2.92e-12
-0.8, 0.1, 1.8992e-09, 3.76e-12
-0.6, 0.1, 1.8465e-09, 4.52e-12
-0.4, 0.1, 1.8165e-09, 5.37e-12
-0.2, 0.1, 1.856e-09, 6.07e-12
0.0, 0.1, 1.8148e-09, 6.84e-12
0.2, 0.1, 1.7826e-09, 7.69e-12
0.4, 0.1, 1.8357e-09, 8.42e-12
0.6, 0.1, 1.7359e-09, 9.21e-12
0.8, 0.1, 1.7119e-09, 1.01e-11
1.0, 0.1, 1.6838e-09, 1.087e-11
1.2, 0.1, 1.6217e-09, 1.169e-11
1.4, 0.1, 1.5267e-09, 1.245e-11
1.6, 0.1, 1.4658e-09, 1.336e-11
1.8, 0.1, 1.493e-09, 1.431e-11
2.0, 0.1, 1.3908e-09, 1.521e-11
2.2, 0.1, 1.3975e-09, 1.613e-11
2.4, 0.1, 1.3516e-09, 1.691e-11
2.6, 0.1, 1.2665e-09, 1.8e-11
2.8, 0.1, 1.159e-09, 1.917e-11
3.0, 0.1, 1.0866e-09, 2.006e-11
3.2, 0.1, 9.6748e-10, 2.109e-11
3.4, 0.1, 9.2797e-10, 2.228e-11
3.6, 0.1, 8.7941e-10, 2.342e-11
3.8, 0.1, 8.588e-10, 2.422e-11
4.0, 0.1, 8.1394e-10, 2.529e-11
4.2, 0.1, 7.029e-10, 2.669e-11
4.4, 0.1, 7.2429e-10, 2.809e-11
4.6, 0.1, 6.5743e-10, 2.962e-11
4.8, 0.1, 6.0532e-10, 3.039e-11
5.0, 0.1, 6.1552e-10, 3.16e-11
5.2, 0.1, 5.8609e-10, 3.24e-11
5.4, 0.1, 5.216e-10, 3.38e-11
5.6, 0.1, 5.2421e-10, 3.549e-11
5.8, 0.1, 4.8149e-10, 3.646e-11
6.0, 0.1, 4.976e-10, 3.773e-11
6.2, 0.1, 4.3178e-10, 3.913e-11
6.4, 0.1, 4.3712e-10, 4.065e-11
6.6, 0.1, 4.2695e-10, 4.172e-11
6.8, 0.1, 4.3265e-10, 4.295e-11
7.0, 0.1, 4.2504e-10, 4.395e-11
7.2, 0.1, 3.8715e-10, 4.57e-11
7.4, 0.1, 3.6388e-10, 4.702e-11
7.6, 0.1, 3.4044e-10, 4.819e-11
7.8, 0.1, 3.4047e-10, 4.979e-11
8.0, 0.1, 3.069e-10, 5.128e-11
8.2, 0.1, 3.1456e-10, 5.247e-11
8.4, 0.1, 3.0296e-10, 5.383e-11
8.6, 0.1, 2.765e-10, 5.569e-11
8.8, 0.1, 2.7109e-10, 5.702e-11
9.0, 0.1, 2.652e-10, 5.911e-11
9.2, 0.1, 2.6193e-10, 6.056e-11
9.4, 0.1, 2.5561e-10, 6.201e-11
9.6, 0.1, 2.4819e-10, 6.37e-11
9.8, 0.1, 2.5325e-10, 6.554e-11
10.0, 0.1, 2.3995e-10, 6.675e-11
10.0, 0.1, 2.2332e-10, 6.638e-11
9.8, 0.1, 2.4537e-10, 6.304e-11
9.6, 0.1, 2.2089e-10, 6.004e-11
9.4, 0.1, 2.4346e-10, 5.752e-11
9.2, 0.1, 2.4769e-10, 5.512e-11
9.0, 0.1, 2.3485e-10, 5.287e-11
8.8, 0.1, 2.3855e-10, 5.086e-11
8.6, 0.1, 2.4825e-10, 4.884e-11
8.4, 0.1, 2.3415e-10, 4.713e-11
8.2, 0.1, 2.5466e-10, 4.519e-11
8.0, 0.1, 2.8352e-10, 4.314e-11
7.8, 0.1, 3.1938e-10, 4.112e-11
7.6, 0.1, 2.9434e-10, 3.899e-11
7.4, 0.1, 3.5509e-10, 3.749e-11
7.2, 0.1, 4.1507e-10, 3.605e-11
7.0, 0.1, 4.4726e-10, 3.468e-11
6.8, 0.1, 5.085e-10, 3.337e-11
6.6, 0.1, 6.0241e-10, 3.156e-11
6.4, 0.1, 6.0485e-10, 2.971e-11
6.2, 0.1, 6.7414e-10, 2.82e-11
6.0, 0.1, 7.5579e-10, 2.658e-11
5.8, 0.1, 8.3522e-10, 2.542e-11
5.6, 0.1, 9.187e-10, 2.355e-11
5.4, 0.1, 9.7604e-10, 2.17e-11
5.2, 0.1, 1.0568e-09, 2.036e-11
5.0, 0.1, 1.1474e-09, 1.889e-11
4.8, 0.1, 1.1867e-09, 1.767e-11
4.6, 0.1, 1.2283e-09, 1.66e-11
4.4, 0.1, 1.3573e-09, 1.5e-11
4.2, 0.1, 1.4247e-09, 1.38e-11
4.0, 0.1, 1.4793e-09, 1.261e-11
3.8, 0.1, 1.5915e-09, 1.117e-11
3.6, 0.1, 1.6335e-09, 9.84e-12
3.4, 0.1, 1.683e-09, 8.87e-12
3.2, 0.1, 1.7281e-09, 7.58e-12
3.0, 0.1, 1.77e-09, 6.49e-12
2.8, 0.1, 1.8393e-09, 5.2e-12
2.6, 0.1, 1.8819e-09, 4.29e-12
2.4, 0.1, 1.9817e-09, 3.2e-12
2.2, 0.1, 1.9964e-09, -1.41e-12
2.0, 0.1, 2.0688e-09, -1.3e-13
1.8, 0.1, 2.1401e-09, 2.5e-13
1.6, 0.1, 2.1451e-09, -5e-14
1.4, 0.1, 2.1814e-09, -1.45e-12
1.2, 0.1, 2.217e-09, -2.41e-12
1.0, 0.1, 2.1948e-09, -2.95e-12
0.8, 0.1, 2.2166e-09, -3.91e-12
0.6, 0.1, 2.2506e-09, -4.75e-12
0.4, 0.1, 2.2277e-09, -5.84e-12
0.2, 0.1, 2.2378e-09, -8.24e-12
0.0, 0.1, 2.2385e-09, -8.17e-12
-0.2, 0.1, 2.2381e-09, -8.59e-12
-0.4, 0.1, 2.2474e-09, -9.65e-12
-0.6, 0.1, 2.2573e-09, -1.073e-11
-0.8, 0.1, 2.2296e-09, -1.239e-11
-1.0, 0.1, 2.3343e-09, -1.428e-11
-1.2, 0.1, 2.3624e-09, -1.251e-11
-1.4, 0.1, 2.3957e-09, -1.336e-11
-1.6, 0.1, 2.3542e-09, -1.582e-11
-1.8, 0.1, 2.3655e-09, -1.634e-11
-2.0, 0.1, 2.366e-09, -1.759e-11
-2.2, 0.1, 2.3457e-09, -1.908e-11
-2.4, 0.1, 2.4193e-09, -1.967e-11
-2.6, 0.1, 2.366e-09, -2.003e-11
-2.8, 0.1, 2.3825e-09, -2.08e-11
-3.0, 0.1, 2.4873e-09, -2.132e-11
-3.2, 0.1, 2.3486e-09, -7.213e-11
-3.4, 0.1, 2.4623e-09, -1.768e-11
-3.6, 0.1, 2.3929e-09, -1.865e-11
-3.8, 0.1, 2.4728e-09, -1.947e-11
-4.0, 0.1, 2.5173e-09, -2.052e-11
-4.2, 0.1, 2.4303e-09, -2.156e-11
-4.4, 0.1, 2.5124e-09, -2.242e-11
-4.6, 0.1, 2.4757e-09, -2.356e-11
-4.8, 0.1, 2.4423e-09, -2.465e-11
-5.0, 0.1, 2.4531e-09, -2.605e-11
-5.2, 0.1, 2.4942e-09, -2.708e-11
-5.4, 0.1, 2.5612e-09, -2.857e-11
-5.6, 0.1, 2.4065e-09, -2.993e-11
-5.8, 0.1, 2.4998e-09, -3.119e-11
-6.0, 0.1, 2.5105e-09, -3.244e-11
-6.2, 0.1, 2.4748e-09, -3.344e-11
-6.4, 0.1, 2.4524e-09, -3.478e-11
-6.6, 0.1, 2.5492e-09, -3.594e-11
-6.8, 0.1, 2.6038e-09, -3.705e-11
-7.0, 0.1, 2.5885e-09, -3.835e-11
-7.2, 0.1, 2.5247e-09, -3.956e-11
-7.4, 0.1, 2.5116e-09, -4.106e-11
-7.6, 0.1, 2.4685e-09, -4.236e-11
-7.8, 0.1, 2.5095e-09, -4.382e-11
-8.0, 0.1, 2.5915e-09, -4.494e-11
-8.2, 0.1, 2.5373e-09, -4.61e-11
-8.4, 0.1, 2.5878e-09, -4.738e-11
-8.6, 0.1, 2.5281e-09, -4.848e-11
-8.8, 0.1, 2.5741e-09, -4.962e-11
-9.0, 0.1, 2.5124e-09, -5.028e-11
-9.2, 0.1, 2.5752e-09, -5.255e-11
-9.4, 0.1, 2.5142e-09, -5.381e-11
-9.6, 0.1, 2.5973e-09, -5.499e-11
-9.8, 0.1, 2.5547e-09, -5.624e-11
-10.0, 0.1, 2.5616e-09, -5.767e-11
