VG, VDS, ID, IG
-10.0, 0.1, 1.9575e-07, -6.64e-11
-9.8, 0.1, 1.9019e-07, -6.021e-11
-9.6, 0.1, 1.8785e-07, -5.586e-11
-9.4, 0.1, 1.8653e-07, -5.28e-11
-9.2, 0.1, 1.8567e-07, -5.076e-11
-9.0, 0.1, 1.8508e-07, -4.919e-11
-8.8, 0.1, 1.8442e-07, -4.763e-11
-8.6, 0.1, 1.8405e-07, -4.582e-11
-8.4, 0.1, 1.8356e-07, -4.433e-11
-8.2, 0.1, 1.8331e-07, -4.281e-11
-8.0, 0.1, 1.8299e-07, -4.12e-11
-7.8, 0.1, 1.8286e-07, -3.992e-11
-7.6, 0.1, 1.8231e-07, -3.829e-11
-7.4, 0.1, 1.8188e-07, -3.668e-11
-7.2, 0.1, 1.8175e-07, -3.513e-11
-7.0, 0.1, 1.8136e-07, -3.358e-11
-6.8, 0.1, 1.8109e-07, -3.263e-11
-6.6, 0.1, 1.8079e-07, -3.105e-11
-6.4, 0.1, 1.8044e-07, -3.016e-11
-6.2, 0.1, 1.8005e-07, -2.88e-11
-6.0, 0.1, 1.7987e-07, -2.737e-11
-5.8, 0.1, 1.7989e-07, -2.702e-11
-5.6, 0.1, 1.7919e-07, -2.601e-11
-5.4, 0.1, 1.7895e-07, -2.468e-11
-5.2, 0.1, 1.7839e-07, -2.39e-11
-5.0, 0.1, 1.7774e-07, -2.231e-11
-4.8, 0.1, 1.7728e-07, -2.078e-11
-4.6, 0.1, 1.7677e-07, -1.894e-11
-4.4, 0.1, 1.7655e-07, -1.865e-11
-4.2, 0.1, 1.7612e-07, -1.763e-11
-4.0, 0.1, 1.7544e-07, -1.623e-11
-3.8, 0.1, 1.7493e-07, -1.535e-11
-3.6, 0.1, 1.7447e-07, -1.414e-11
-3.4, 0.1, 1.7404e-07, -1.333e-11
-3.2, 0.1, 1.7354e-07, -1.22e-11
-3.0, 0.1, 1.732e-07, -1.128e-11
-2.8, 0.1, 1.7276e-07, -1.035e-11
-2.6, 0.1, 1.7213e-07, -9.61e-12
-2.4, 0.1, 1.7162e-07, -8.66e-12
-2.2, 0.1, 1.713e-07, -7.82e-12
-2.0, 0.1, 1.7064e-07, -7.2e-12
-1.8, 0.1, 1.7011e-07, -6.32e-12
-1.6, 0.1, 1.6944e-07, -5.3e-12
-1.4, 0.1, 1.6881e-07, -4.55e-12
-1.2, 0.1, 1.6827e-07, -3.79e-12
-1.0, 0.1, 1.6781e-07, -2.81e-12
-0.8, 0.1, 1.6724e-07, -1.6e-12
-0.6, 0.1, 1.6657e-07, -1.78e-12
-0.4, 0.1, 1.6597e-07, -1.22e-12
-0.2, 0.1, 1.6531e-07, 0.0
0.0, 0.1, 1.6464e-07, 5.2e-13
0.2, 0.1, 1.6418e-07, 1.41e-12
0.4, 0.1, 1.6363e-07, 2.19e-12
0.6, 0.1, 1.6316e-07, 2.71e-12
0.8, 0.1, 1.6233e-07, 3.7e-12
1.0, 0.1, 1.617e-07, 4.28e-12
1.2, 0.1, 1.6099e-07, 5.11e-12
1.4, 0.1, 1.6046e-07, 5.97e-12
1.6, 0.1, 1.5968e-07, 7.01e-12
1.8, 0.1, 1.5911e-07, 7.76e-12
2.0, 0.1, 1.5842e-07, 8.55e-12
2.2, 0.1, 1.5783e-07, 9.61e-12
2.4, 0.1, 1.5714e-07, 1.037e-11
2.6, 0.1, 1.5645e-07, 1.117e-11
2.8, 0.1, 1.5582e-07, 1.238e-11
3.0, 0.1, 1.5522e-07, 1.316e-11
3.2, 0.1, 1.5463e-07, 1.415e-11
3.4, 0.1, 1.5402e-07, 1.514e-11
3.6, 0.1, 1.5331e-07, 1.595e-11
3.8, 0.1, 1.5289e-07, 1.698e-11
4.0, 0.1, 1.5215e-07, 1.793e-11
4.2, 0.1, 1.5133e-07, 1.919e-11
4.4, 0.1, 1.5073e-07, 2.033e-11
4.6, 0.1, 1.5024e-07, 2.155e-11
4.8, 0.1, 1.4948e-07, 2.243e-11
5.0, 0.1, 1.4887e-07, 2.369e-11
5.2, 0.1, 1.4832e-07, 2.469e-11
5.4, 0.1, 1.476e-07, 2.572e-11
5.6, 0.1, 1.4675e-07, 2.672e-11
5.8, 0.1, 1.463e-07, 2.798e-11
6.0, 0.1, 1.4557e-07, 2.899e-11
6.2, 0.1, 1.45e-07, 3.038e-11
6.4, 0.1, 1.4441e-07, 3.138e-11
6.6, 0.1, 1.4373e-07, 3.299e-11
6.8, 0.1, 1.4317e-07, 3.401e-11
7.0, 0.1, 1.4266e-07, 3.544e-11
7.2, 0.1, 1.4189e-07, 3.641e-11
7.4, 0.1, 1.4115e-07, 3.812e-11
7.6, 0.1, 1.4072e-07, 3.958e-11
7.8, 0.1, 1.4013e-07, 4.081e-11
8.0, 0.1, 1.3953e-07, 4.212e-11
8.2, 0.1, 1.3883e-07, 4.396e-11
8.4, 0.1, 1.3838e-07, 4.509e-11
8.6, 0.1, 1.3761e-07, 4.651e-11
8.8, 0.1, 1.3706e-07, 4.821e-11
9.0, 0.1, 1.3648e-07, 4.922e-11
9.2, 0.1, 1.3577e-07, 5.076e-11
9.4, 0.1, 1.3526e-07, 5.232e-11
9.6, 0.1, 1.3446e-07, 5.423e-11
9.8, 0.1, 1.3389e-07, 5.575e-11
10.0, 0.1, 1.3347e-07, 5.732e-11
10.0, 0.1, 1.3361e-07, 5.665e-11
9.8, 0.1, 1.3434e-07, 5.465e-11
9.6, 0.1, 1.3512e-07, 5.277e-11
9.4, 0.1, 1.3571e-07, 5.096e-11
9.2, 0.1, 1.3638e-07, 4.964e-11
9.0, 0.1, 1.371e-07, 4.854e-11
8.8, 0.1, 1.3758e-07, 4.684e-11
8.6, 0.1, 1.3823e-07, 4.542e-11
8.4, 0.1, 1.3895e-07, 4.415e-11
8.2, 0.1, 1.3963e-07, 4.246e-11
8.0, 0.1, 1.4014e-07, 4.142e-11
7.8, 0.1, 1.4073e-07, 3.996e-11
7.6, 0.1, 1.4127e-07, 3.799e-11
7.4, 0.1, 1.4195e-07, 3.729e-11
7.2, 0.1, 1.4285e-07, 3.611e-11
7.0, 0.1, 1.4323e-07, 3.43e-11
6.8, 0.1, 1.4395e-07, 3.311e-11
6.6, 0.1, 1.4451e-07, 3.191e-11
6.4, 0.1, 1.453e-07, 3.075e-11
6.2, 0.1, 1.4592e-07, 2.955e-11
6.0, 0.1, 1.4666e-07, 2.853e-11
5.8, 0.1, 1.4742e-07, 2.724e-11
5.6, 0.1, 1.4823e-07, 2.601e-11
5.4, 0.1, 1.4892e-07, 2.482e-11
5.2, 0.1, 1.4956e-07, 2.362e-11
5.0, 0.1, 1.5036e-07, 2.252e-11
4.8, 0.1, 1.5107e-07, 2.118e-11
4.6, 0.1, 1.518e-07, 1.999e-11
4.4, 0.1, 1.5244e-07, 1.896e-11
4.2, 0.1, 1.5322e-07, 1.779e-11
4.0, 0.1, 1.5399e-07, 1.675e-11
3.8, 0.1, 1.5466e-07, 1.569e-11
3.6, 0.1, 1.5542e-07, 1.463e-11
3.4, 0.1, 1.5607e-07, 1.364e-11
3.2, 0.1, 1.5663e-07, 1.27e-11
3.0, 0.1, 1.5739e-07, 1.172e-11
2.8, 0.1, 1.5801e-07, 1.076e-11
2.6, 0.1, 1.5873e-07, 9.75e-12
2.4, 0.1, 1.5934e-07, 8.87e-12
2.2, 0.1, 1.5984e-07, 7.99e-12
2.0, 0.1, 1.6062e-07, 7.16e-12
1.8, 0.1, 1.6134e-07, 6.13e-12
1.6, 0.1, 1.6187e-07, 5.61e-12
1.4, 0.1, 1.6256e-07, 4.64e-12
1.2, 0.1, 1.632e-07, 3.14e-12
1.0, 0.1, 1.6363e-07, 2.68e-12
0.8, 0.1, 1.6413e-07, 1.86e-12
0.6, 0.1, 1.6472e-07, 1.41e-12
0.4, 0.1, 1.6522e-07, 6.8e-13
0.2, 0.1, 1.6584e-07, 1.9e-13
0.0, 0.1, 1.6653e-07, -5.6e-13
-0.2, 0.1, 1.6723e-07, -1.33e-12
-0.4, 0.1, 1.6803e-07, -2.03e-12
-0.6, 0.1, 1.6858e-07, -2.92e-12
-0.8, 0.1, 1.6909e-07, -3.57e-12
-1.0, 0.1, 1.6962e-07, -4.21e-12
-1.2, 0.1, 1.7038e-07, -5.47e-12
-1.4, 0.1, 1.7098e-07, -6.05e-12
-1.6, 0.1, 1.7134e-07, -6.85e-12
-1.8, 0.1, 1.7189e-07, -7.85e-12
-2.0, 0.1, 1.7226e-07, -8.6e-12
-2.2, 0.1, 1.727e-07, -9.4e-12
-2.4, 0.1, 1.7323e-07, -1.024e-11
-2.6, 0.1, 1.7395e-07, -1.136e-11
-2.8, 0.1, 1.743e-07, -1.253e-11
-3.0, 0.1, 1.7473e-07, -1.342e-11
-3.2, 0.1, 1.7518e-07, -1.428e-11
-3.4, 0.1, 1.757e-07, -1.52e-11
-3.6, 0.1, 1.7581e-07, -1.633e-11
-3.8, 0.1, 1.7633e-07, -1.746e-11
-4.0, 0.1, 1.7659e-07, -1.875e-11
-4.2, 0.1, 1.7707e-07, -1.964e-11
-4.4, 0.1, 1.774e-07, -2.077e-11
-4.6, 0.1, 1.778e-07, -2.181e-11
-4.8, 0.1, 1.7808e-07, -2.291e-11
-5.0, 0.1, 1.7851e-07, -2.434e-11
-5.2, 0.1, 1.7888e-07, -2.537e-11
-5.4, 0.1, 1.7912e-07, -2.642e-11
-5.6, 0.1, 1.7963e-07, -2.715e-11
-5.8, 0.1, 1.8009e-07, -2.873e-11
-6.0, 0.1, 1.805e-07, -3.057e-11
-6.2, 0.1, 1.8086e-07, -3.194e-11
-6.4, 0.1, 1.8111e-07, -3.301e-11
-6.6, 0.1, 1.8119e-07, -3.443e-11
-6.8, 0.1, 1.8144e-07, -3.521e-11
-7.0, 0.1, 1.8169e-07, -3.632e-11
-7.2, 0.1, 1.8198e-07, -3.769e-11
-7.4, 0.1, 1.8232e-07, -3.917e-11
-7.6, 0.1, 1.8266e-07, -4.084e-11
-7.8, 0.1, 1.8263e-07, -4.189e-11
-8.0, 0.1, 1.8273e-07, -4.283e-11
-8.2, 0.1, 1.8304e-07, -4.504e-11
-8.4, 0.1, 1.8335e-07, -4.552e-11
-8.6, 0.1, 1.8376e-07, -4.819e-11
-8.8, 0.1, 1.8387e-07, -4.864e-11
-9.0, 0.1, 1.8387e-07, -4.986e-11
-9.2, 0.1, 1.8402e-07, -5.178e-11
-9.4, 0.1, 1.8429e-07, -5.292e-11
-9.6, 0.1, 1.8446e-07, -5.5e-11
-9.8, 0.1, 1.8468e-07, -5.614e-11
-10.0, 0.1, 1.8501e-07, -5.816e-11
